
T0428 000:467 SEGGER J-Link V4.40c Log File (0000ms, 0466ms total)
T0428 000:467 DLL Compiled: Jan 24 2012 09:30:33 (0000ms, 0466ms total)
T0428 000:467 Logging started @ 2014-04-19 22:11 (0000ms, 0466ms total)
T0428 000:467 JLINK_SetWarnOutHandler(...) (0000ms, 0466ms total)
T0428 000:467 JLINK_OpenEx(...)
Firmware: J-Link ARM V8 compiled Dec  6 2011 18:57:44
Hardware: V8.00
S/N: 17892859
Feature(s): RDI,FlashDL,FlashBP,JFlash  returns O.K. (0195ms, 0466ms total)
T0428 000:662 JLINK_SetErrorOutHandler(...) (0000ms, 0661ms total)
T0428 000:662 JLINK_ExecCommand("Device = STM32F103VE", ...)
                JLINK_ExecCommand("map ram 0x20000000 - 0x2000FFFF", ...)  returns 0x00 (0000ms, 0000ms total)
                JLINK_AddMirrorAreaEx(Addr = 0x00000000, Size = 0x00000000) (0000ms, 0000ms total)
              Device "STM32F103VE" selected (512 KB flash, 64 KB RAM).  returns 0x00 (0011ms, 0661ms total)
T0428 000:673 JLINK_ExecCommand("ProjectFile = "G:\work\lwip\Src\Project\JLinkSettings.ini"", ...)  returns 0x00 (0001ms, 0672ms total)
T0428 000:677 JLINK_ExecCommand("DisableConnectionTimeout", ...)  returns 0x00 (0000ms, 0673ms total)
T0428 000:677 JLINK_TIF_Select(JLINKARM_TIF_JTAG)  returns 0x00 (0000ms, 0673ms total)
T0428 000:677 JLINK_SetSpeed(2000) (0000ms, 0673ms total)
T0428 000:677 JLINK_GetHardwareVersion()  returns 0x13880 (0000ms, 0673ms total)
T0428 000:677 JLINK_GetDLLVersion()  returns 44003 (0000ms, 0673ms total)
T0428 000:677 JLINK_GetFirmwareString(...) (0000ms, 0673ms total)
T0428 000:685 JLINK_GetDLLVersion()  returns 44003 (0000ms, 0673ms total)
T0428 000:685 JLINK_GetCompileDateTime() (0000ms, 0673ms total)
T0428 000:688 JLINK_GetFirmwareString(...) (0000ms, 0673ms total)
T0428 000:690 JLINK_GetHardwareVersion()  returns 0x13880 (0000ms, 0673ms total)
T0428 000:700 JLINK_GetIdData(...) >0x2F8 JTAG>TotalIRLen = 9, IRPrint = 0x0011 >0x30 JTAG> >0x210 JTAG> >0x80 JTAG> >0x40 JTAG> >0x40 JTAG> >0x50 JTAG> >0x40 JTAG> >0x40 JTAG> >0x40 JTAG> >0x50 JTAG> >0x40 JTAG> >0x50 JTAG> >0x40 JTAG> >0x40 JTAG> >0x40 JTAG> >0x30 JTAG> >0x40 JTAG> >0x50 JTAG> >0x40 JTAG> >0x38 JTAG> >0x80 JTAG> >0x40 JTAG> >0x40 JTAG> >0x50 JTAG> >0x40 JTAG> >0x40 JTAG> >0x40 JTAG> >0x50 JTAG> >0x40 JTAG> >0x40 JTAG> >0x30 JTAG> >0x40 JTAG> >0x40 JTAG> >0x40 JTAG> >0x40 JTAG>
 >0x40 JTAG> >0x50 JTAG> >0x40 JTAG> >0x80 JTAG> >0x40 JTAG> >0x30 JTAG> >0x40 JTAG> >0x40 JTAG> >0x40 JTAG> >0x40 JTAG> >0x40 JTAG> >0x50 JTAG> >0x40 JTAG> >0x80 JTAG> >0x40 JTAG> >0x30 JTAG> >0x40 JTAG> >0x50 JTAG> >0x40 JTAG> >0x40 JTAG> >0x40 JTAG> >0x30 JTAG> >0x40 JTAG> >0x50 JTAG> >0x40 JTAG>Found Cortex-M3 r1p1, Little endian. >0x50 JTAG> >0x50 JTAG> >0x40 JTAG> >0x40 JTAG> >0x30 JTAG> >0x30 JTAG> >0x50 JTAG> >0x40 JTAG> >0x80 JTAG> >0x40 JTAG> >0x30 JTAG> >0x40 JTAG> >0x50 JTAG> >0x40 JTAG>
 >0x40 JTAG> >0x40 JTAG> >0x30 JTAG> >0x30 JTAG> >0x50 JTAG> >0x40 JTAG> >0x80 JTAG> >0x40 JTAG> >0x30 JTAG> >0x40 JTAG> >0x50 JTAG> >0x40 JTAG>TPIU fitted. >0x40 JTAG> >0x40 JTAG> >0x30 JTAG> >0x40 JTAG> >0x50 JTAG> >0x40 JTAG>ETM fitted. >0x40 JTAG> >0x40 JTAG> >0x30 JTAG> >0x40 JTAG> >0x50 JTAG> >0x40 JTAG> >0x40 JTAG> >0x40 JTAG> >0x30 JTAG> >0x40 JTAG> >0x50 JTAG> >0x40 JTAG>  FPUnit: 6 code (BP) slots and 2 literal slots >0x40 JTAG> >0x40 JTAG> >0x30 JTAG> >0x40 JTAG> >0x50 JTAG> >0x40 JTAG>
 >0x40 JTAG> >0x40 JTAG> >0x30 JTAG> >0x30 JTAG> >0x50 JTAG> >0x40 JTAG> >0x80 JTAG> >0x40 JTAG> >0x30 JTAG> >0x40 JTAG> >0x50 JTAG> >0x40 JTAG> ScanLen=9 NumDevices=2 aId[0]=0x3BA00477 aIrRead[0]=0 aScanLen[0]=0 aScanRead[0]=0 (0095ms, 0673ms total)
T0428 000:795 JLINK_JTAG_GetDeviceID(DeviceIndex = 0)  returns 0x3BA00477 (0000ms, 0768ms total)
T0428 000:795 JLINK_JTAG_GetDeviceInfo(DeviceIndex = 0)  returns 0x00 (0000ms, 0768ms total)
T0428 000:795 JLINK_JTAG_GetDeviceID(DeviceIndex = 1)  returns 0x6414041 (0000ms, 0768ms total)
T0428 000:795 JLINK_JTAG_GetDeviceInfo(DeviceIndex = 1)  returns 0x00 (0000ms, 0768ms total)
T0428 000:795 JLINK_GetDebugInfo(0x100) -- Value=0xE00FF003  returns 0x00 (0000ms, 0768ms total)
T0428 000:797 JLINK_ReadMem (0xE00FFFF0, 0x0010 Bytes, ...) -- CPU is running -- CPU_ReadMem(16 bytes @ 0xE00FFFF0) -- Data:  0D 00 00 00 10 00 00 00 05 00 00 00 B1 00 00 00  returns 0x00 (0005ms, 0768ms total)
T0428 000:802 JLINK_ReadMem (0xE00FFFD0, 0x0020 Bytes, ...) -- CPU is running -- CPU_ReadMem(32 bytes @ 0xE00FFFD0) -- Data:  00 00 00 00 00 00 00 00 00 00 00 00 00 00 00 00 ...  returns 0x00 (0001ms, 0773ms total)
T0428 000:803 JLINK_ReadMem (0xE00FF000, 0x0018 Bytes, ...) -- CPU is running -- CPU_ReadMem(24 bytes @ 0xE00FF000) -- Data:  03 F0 F0 FF 03 20 F0 FF 03 30 F0 FF 03 10 F0 FF ...  returns 0x00 (0001ms, 0774ms total)
T0428 000:805 JLINK_ReadMemU32(0xE000ED00, 0x0001 Items, ...) -- CPU is running -- CPU_ReadMem(4 bytes @ 0xE000ED00) -- Data:  31 C2 1F 41  returns 0x01 (0001ms, 0776ms total)
T0428 000:806 JLINK_SetResetType(JLINKARM_RESET_TYPE_NORMAL)  returns JLINKARM_RESET_TYPE_NORMAL (0000ms, 0777ms total)
T0428 000:806 JLINK_Reset() >0x308 JTAG>TotalIRLen = 9, IRPrint = 0x0011 >0x30 JTAG> >0x210 JTAG> >0x80 JTAG> >0x40 JTAG> >0x40 JTAG> >0x50 JTAG> >0x40 JTAG> >0x40 JTAG> >0x40 JTAG> >0x50 JTAG> >0x40 JTAG> >0x50 JTAG> >0x40 JTAG> >0x40 JTAG> >0x40 JTAG> >0x30 JTAG> >0x40 JTAG> >0x50 JTAG> >0x40 JTAG> >0x38 JTAG> >0x80 JTAG> >0x40 JTAG> >0x40 JTAG> >0x50 JTAG> >0x40 JTAG> >0x40 JTAG> >0x40 JTAG> >0x50 JTAG> >0x40 JTAG> >0x40 JTAG> >0x30 JTAG> >0x40 JTAG> >0x40 JTAG> >0x40 JTAG> >0x40 JTAG> >0x40 JTAG>
 >0x50 JTAG> >0x40 JTAG> >0x80 JTAG> >0x40 JTAG> >0x30 JTAG> >0x40 JTAG> >0x40 JTAG> >0x40 JTAG> >0x40 JTAG> >0x40 JTAG> >0x50 JTAG> >0x40 JTAG> >0x80 JTAG> >0x40 JTAG> >0x30 JTAG> >0x40 JTAG> >0x50 JTAG> >0x40 JTAG> >0x40 JTAG> >0x40 JTAG> >0x30 JTAG> >0x40 JTAG> >0x50 JTAG> >0x40 JTAG>Found Cortex-M3 r1p1, Little endian. >0x50 JTAG> >0x50 JTAG> >0x40 JTAG> >0x40 JTAG> >0x30 JTAG> >0x30 JTAG> >0x50 JTAG> >0x40 JTAG> >0x80 JTAG> >0x40 JTAG> >0x30 JTAG> >0x40 JTAG> >0x50 JTAG> >0x40 JTAG> >0x40 JTAG>
 >0x40 JTAG> >0x30 JTAG> >0x40 JTAG> >0x50 JTAG> >0x40 JTAG>TPIU fitted. >0x40 JTAG> >0x40 JTAG> >0x30 JTAG> >0x40 JTAG> >0x50 JTAG> >0x40 JTAG>ETM fitted. >0x40 JTAG> >0x40 JTAG> >0x30 JTAG> >0x40 JTAG> >0x50 JTAG> >0x40 JTAG> >0x40 JTAG> >0x40 JTAG> >0x30 JTAG> >0x40 JTAG> >0x50 JTAG> >0x40 JTAG>  FPUnit: 6 code (BP) slots and 2 literal slots >0x40 JTAG> >0x40 JTAG> >0x30 JTAG> >0x40 JTAG> >0x50 JTAG> >0x40 JTAG> >0x40 JTAG> >0x40 JTAG> >0x30 JTAG> >0x40 JTAG> >0x50 JTAG> >0x40 JTAG> >0x48 JTAG>
 >0x80 JTAG> >0x40 JTAG> >0x40 JTAG> >0x50 JTAG> >0x40 JTAG> >0x40 JTAG> >0x40 JTAG> >0x50 JTAG> >0x40 JTAG> >0x40 JTAG> >0x30 JTAG> >0x40 JTAG> >0x40 JTAG> >0x40 JTAG> >0x40 JTAG> >0x40 JTAG> >0x50 JTAG> >0x40 JTAG> >0x80 JTAG> >0x40 JTAG> >0x30 JTAG> >0x40 JTAG> >0x40 JTAG> >0x40 JTAG> >0x40 JTAG> >0x40 JTAG> >0x50 JTAG> >0x40 JTAG> >0x80 JTAG> >0x40 JTAG> >0x30 JTAG> >0x40 JTAG> >0x50 JTAG> >0x40 JTAG> >0x40 JTAG> >0x40 JTAG> >0x30 JTAG> >0x40 JTAG> >0x50 JTAG> >0x40 JTAG>
Found Cortex-M3 r1p1, Little endian. >0x50 JTAG> >0x50 JTAG> >0x40 JTAG> >0x40 JTAG> >0x30 JTAG> >0x30 JTAG> >0x50 JTAG> >0x40 JTAG> >0x80 JTAG> >0x40 JTAG> >0x30 JTAG> >0x40 JTAG> >0x50 JTAG> >0x40 JTAG> >0x40 JTAG> >0x40 JTAG> >0x30 JTAG> >0x40 JTAG> >0x50 JTAG> >0x40 JTAG>TPIU fitted. >0x40 JTAG> >0x40 JTAG> >0x30 JTAG> >0x40 JTAG> >0x50 JTAG> >0x40 JTAG>ETM fitted. >0x40 JTAG> >0x40 JTAG> >0x30 JTAG> >0x40 JTAG> >0x50 JTAG> >0x40 JTAG> >0x40 JTAG> >0x40 JTAG> >0x30 JTAG> >0x40 JTAG> >0x50 JTAG>
 >0x40 JTAG>  FPUnit: 6 code (BP) slots and 2 literal slots >0x40 JTAG> >0x40 JTAG> >0x30 JTAG> >0x40 JTAG> >0x50 JTAG> >0x40 JTAG> >0x40 JTAG> >0x40 JTAG> >0x30 JTAG> >0x40 JTAG> >0x50 JTAG> >0x40 JTAG> -- CPU is running -- CPU_WriteMem(4 bytes @ 0xE000EDF0) -- CPU is running -- CPU_WriteMem(4 bytes @ 0xE000EDFC) -- CPU is running -- CPU_WriteMem(4 bytes @ 0xE000ED0C) -- CPU is running -- CPU_ReadMem(4 bytes @ 0xE000EDF0) -- CPU is running -- CPU_ReadMem(4 bytes @ 0xE000EDF0) -- CPU is running
 -- CPU_WriteMem(4 bytes @ 0xE000EDF0) -- CPU is running -- CPU_WriteMem(4 bytes @ 0xE000EDFC) -- CPU is running -- CPU_ReadMem(4 bytes @ 0xE000EDF0) >0x90 JTAG> >0x40 JTAG> >0x30 JTAG> >0x40 JTAG> >0x50 JTAG> >0x40 JTAG> -- CPU_WriteMem(4 bytes @ 0xE000EDFC) -- CPU_WriteMem(4 bytes @ 0xE0001028) -- CPU_WriteMem(4 bytes @ 0xE0001038) -- CPU_WriteMem(4 bytes @ 0xE0001048) -- CPU_WriteMem(4 bytes @ 0xE0001058) (0195ms, 0777ms total)
T0428 001:002 JLINK_Halt()  returns 0x00 (0001ms, 0972ms total)
T0428 001:003 JLINK_IsHalted()  returns TRUE (0000ms, 0973ms total)
T0428 001:003 JLINK_ReadMemU32(0xE000EDF0, 0x0001 Items, ...) -- CPU_ReadMem(4 bytes @ 0xE000EDF0) -- Data:  03 00 03 00  returns 0x01 (0001ms, 0973ms total)
T0428 001:004 JLINK_WriteU32(0xE000EDF0, 0xA05F0003) -- CPU_WriteMem(4 bytes @ 0xE000EDF0)  returns 0x00 (0001ms, 0974ms total)
T0428 001:005 JLINK_WriteU32(0xE000EDFC, 0x01000000) -- CPU_WriteMem(4 bytes @ 0xE000EDFC)  returns 0x00 (0002ms, 0975ms total)
T0428 001:053 JLINK_GetHWStatus(...)  returns 0x00 (0000ms, 0977ms total)
T0428 001:062 JLINK_GetNumBPUnits(Type = 0xFFFFFF00)  returns 0x06 (0000ms, 0977ms total)
T0428 001:062 JLINK_GetNumBPUnits(Type = 0xF0)  returns 0x2000 (0000ms, 0977ms total)
T0428 001:062 JLINK_GetNumWPUnits()  returns 0x04 (0000ms, 0977ms total)
T0428 001:070 JLINK_GetSpeed()  returns 0x7D0 (0000ms, 0977ms total)
T0428 001:075 JLINK_ReadMemU32(0xE000E004, 0x0001 Items, ...) -- CPU_ReadMem(4 bytes @ 0xE000E004) -- Data:  01 00 00 00  returns 0x01 (0001ms, 0977ms total)
T0428 001:076 JLINK_ReadMemU32(0xE000E004, 0x0001 Items, ...) -- CPU_ReadMem(4 bytes @ 0xE000E004) -- Data:  01 00 00 00  returns 0x01 (0001ms, 0978ms total)
T0428 001:077 JLINK_WriteMem(0xE0001000, 0x001C Bytes, ...) -- Data:  01 00 00 00 00 00 00 00 00 00 00 00 00 00 00 00 ... -- CPU_WriteMem(28 bytes @ 0xE0001000)  returns 0x1C (0001ms, 0979ms total)
T0428 001:078 JLINK_ReadMem (0xE0001000, 0x001C Bytes, ...) -- CPU_ReadMem(28 bytes @ 0xE0001000) -- Data:  01 00 00 40 00 00 00 00 00 00 00 00 00 00 00 00 ...  returns 0x00 (0001ms, 0980ms total)
T0428 001:079 JLINK_Halt()  returns 0x00 (0000ms, 0981ms total)
T0428 001:079 JLINK_IsHalted()  returns TRUE (0000ms, 0981ms total)
T0428 001:080 JLINK_WriteMem(0x20000000, 0x0164 Bytes, ...) -- Data:  00 BE 0A E0 0D 78 2D 06 68 40 08 24 40 00 00 D3 ... -- CPU_WriteMem(356 bytes @ 0x20000000)  returns 0x164 (0003ms, 0981ms total)
T0428 001:083 JLINK_WriteReg(R0, 0x08000000)  returns 0x00 (0000ms, 0984ms total)
T0428 001:083 JLINK_WriteReg(R1, 0x007A1200)  returns 0x00 (0000ms, 0984ms total)
T0428 001:083 JLINK_WriteReg(R2, 0x00000001)  returns 0x00 (0000ms, 0984ms total)
T0428 001:083 JLINK_WriteReg(R3, 0x00000000)  returns 0x00 (0000ms, 0984ms total)
T0428 001:083 JLINK_WriteReg(R4, 0x00000000)  returns 0x00 (0000ms, 0984ms total)
T0428 001:083 JLINK_WriteReg(R5, 0x00000000)  returns 0x00 (0000ms, 0984ms total)
T0428 001:083 JLINK_WriteReg(R6, 0x00000000)  returns 0x00 (0000ms, 0984ms total)
T0428 001:083 JLINK_WriteReg(R7, 0x00000000)  returns 0x00 (0000ms, 0984ms total)
T0428 001:083 JLINK_WriteReg(R8, 0x00000000)  returns 0x00 (0000ms, 0984ms total)
T0428 001:084 JLINK_WriteReg(R9, 0x20000160)  returns 0x00 (0000ms, 0985ms total)
T0428 001:084 JLINK_WriteReg(R10, 0x00000000)  returns 0x00 (0000ms, 0985ms total)
T0428 001:084 JLINK_WriteReg(R11, 0x00000000)  returns 0x00 (0000ms, 0985ms total)
T0428 001:084 JLINK_WriteReg(R12, 0x00000000)  returns 0x00 (0000ms, 0985ms total)
T0428 001:084 JLINK_WriteReg(R13, 0x20000800)  returns 0x00 (0000ms, 0985ms total)
T0428 001:084 JLINK_WriteReg(R14, 0x20000001)  returns 0x00 (0000ms, 0985ms total)
T0428 001:084 JLINK_WriteReg(R15, 0x20000038)  returns 0x00 (0000ms, 0985ms total)
T0428 001:084 JLINK_WriteReg(XPSR, 0x01000000)  returns 0x00 (0000ms, 0985ms total)
T0428 001:084 JLINK_WriteReg(MSP, 0x20000800)  returns 0x00 (0000ms, 0985ms total)
T0428 001:084 JLINK_WriteReg(PSP, 0x20000800)  returns 0x00 (0000ms, 0985ms total)
T0428 001:084 JLINK_WriteReg(CFBP, 0x00000000)  returns 0x00 (0000ms, 0985ms total)
T0428 001:084 JLINK_SetBPEx(Addr = 0x20000000, Type = 0xFFFFFFF2) -- CPU_ReadMem(2 bytes @ 0x20000000)  returns 0x00000001 (0001ms, 0985ms total)
T0428 001:085 JLINK_Go() -- CPU_WriteMem(2 bytes @ 0x20000000) -- CPU_WriteMem(4 bytes @ 0xE0002008) -- CPU_WriteMem(4 bytes @ 0xE000200C) -- CPU_WriteMem(4 bytes @ 0xE0002010) -- CPU_WriteMem(4 bytes @ 0xE0002014) -- CPU_WriteMem(4 bytes @ 0xE0002018) -- CPU_WriteMem(4 bytes @ 0xE000201C) (0011ms, 0986ms total)
T0428 001:096 JLINK_IsHalted() -- CPU_ReadMem(2 bytes @ 0x20000000)  returns TRUE (0007ms, 0997ms total)
T0428 001:103 JLINK_ReadReg(R15)  returns 0x20000000 (0000ms, 0997ms total)
T0428 001:103 JLINK_ClrBPEx(BPHandle = 0x00000001)  returns 0x00 (0000ms, 0997ms total)
T0428 001:103 JLINK_ReadReg(R0)  returns 0x00000000 (0000ms, 0997ms total)
T0428 001:103 JLINK_WriteReg(R0, 0x08000000)  returns 0x00 (0000ms, 0997ms total)
T0428 001:103 JLINK_WriteReg(R1, 0x007A1200)  returns 0x00 (0000ms, 0997ms total)
T0428 001:103 JLINK_WriteReg(R2, 0x00000001)  returns 0x00 (0000ms, 0997ms total)
T0428 001:103 JLINK_WriteReg(R3, 0x00000000)  returns 0x00 (0000ms, 0997ms total)
T0428 001:103 JLINK_WriteReg(R4, 0x00000000)  returns 0x00 (0000ms, 0997ms total)
T0428 001:103 JLINK_WriteReg(R5, 0x00000000)  returns 0x00 (0000ms, 0997ms total)
T0428 001:103 JLINK_WriteReg(R6, 0x00000000)  returns 0x00 (0000ms, 0997ms total)
T0428 001:103 JLINK_WriteReg(R7, 0x00000000)  returns 0x00 (0000ms, 0997ms total)
T0428 001:103 JLINK_WriteReg(R8, 0x00000000)  returns 0x00 (0000ms, 0997ms total)
T0428 001:103 JLINK_WriteReg(R9, 0x20000160)  returns 0x00 (0000ms, 0997ms total)
T0428 001:103 JLINK_WriteReg(R10, 0x00000000)  returns 0x00 (0000ms, 0997ms total)
T0428 001:103 JLINK_WriteReg(R11, 0x00000000)  returns 0x00 (0000ms, 0997ms total)
T0428 001:103 JLINK_WriteReg(R12, 0x00000000)  returns 0x00 (0000ms, 0997ms total)
T0428 001:103 JLINK_WriteReg(R13, 0x20000800)  returns 0x00 (0000ms, 0997ms total)
T0428 001:103 JLINK_WriteReg(R14, 0x20000001)  returns 0x00 (0000ms, 0997ms total)
T0428 001:103 JLINK_WriteReg(R15, 0x2000007C)  returns 0x00 (0000ms, 0997ms total)
T0428 001:103 JLINK_WriteReg(XPSR, 0x01000000)  returns 0x00 (0000ms, 0997ms total)
T0428 001:103 JLINK_WriteReg(MSP, 0x20000800)  returns 0x00 (0000ms, 0997ms total)
T0428 001:103 JLINK_WriteReg(PSP, 0x20000800)  returns 0x00 (0000ms, 0997ms total)
T0428 001:103 JLINK_WriteReg(CFBP, 0x00000000)  returns 0x00 (0000ms, 0997ms total)
T0428 001:103 JLINK_SetBPEx(Addr = 0x20000000, Type = 0xFFFFFFF2)  returns 0x00000002 (0000ms, 0997ms total)
T0428 001:103 JLINK_Go() -- CPU_WriteMem(4 bytes @ 0xE0002008) -- CPU_WriteMem(4 bytes @ 0xE000200C) -- CPU_WriteMem(4 bytes @ 0xE0002010) -- CPU_WriteMem(4 bytes @ 0xE0002014) -- CPU_WriteMem(4 bytes @ 0xE0002018) -- CPU_WriteMem(4 bytes @ 0xE000201C) (0007ms, 0997ms total)
T0428 001:110 JLINK_IsHalted()  returns FALSE (0001ms, 1004ms total)
T0428 001:161 JLINK_IsHalted() -- CPU_ReadMem(2 bytes @ 0x20000000)  returns TRUE (0006ms, 1004ms total)
T0428 001:167 JLINK_ReadReg(R15)  returns 0x20000000 (0000ms, 1004ms total)
T0428 001:167 JLINK_ClrBPEx(BPHandle = 0x00000002)  returns 0x00 (0000ms, 1004ms total)
T0428 001:167 JLINK_ReadReg(R0)  returns 0x00000000 (0000ms, 1004ms total)
T0428 001:217 JLINK_WriteReg(R0, 0x00000001)  returns 0x00 (0000ms, 1004ms total)
T0428 001:217 JLINK_WriteReg(R1, 0x007A1200)  returns 0x00 (0000ms, 1004ms total)
T0428 001:217 JLINK_WriteReg(R2, 0x00000001)  returns 0x00 (0000ms, 1004ms total)
T0428 001:217 JLINK_WriteReg(R3, 0x00000000)  returns 0x00 (0000ms, 1004ms total)
T0428 001:217 JLINK_WriteReg(R4, 0x00000000)  returns 0x00 (0000ms, 1004ms total)
T0428 001:217 JLINK_WriteReg(R5, 0x00000000)  returns 0x00 (0000ms, 1004ms total)
T0428 001:217 JLINK_WriteReg(R6, 0x00000000)  returns 0x00 (0000ms, 1004ms total)
T0428 001:217 JLINK_WriteReg(R7, 0x00000000)  returns 0x00 (0000ms, 1004ms total)
T0428 001:217 JLINK_WriteReg(R8, 0x00000000)  returns 0x00 (0000ms, 1004ms total)
T0428 001:217 JLINK_WriteReg(R9, 0x20000160)  returns 0x00 (0000ms, 1004ms total)
T0428 001:217 JLINK_WriteReg(R10, 0x00000000)  returns 0x00 (0000ms, 1004ms total)
T0428 001:217 JLINK_WriteReg(R11, 0x00000000)  returns 0x00 (0000ms, 1004ms total)
T0428 001:217 JLINK_WriteReg(R12, 0x00000000)  returns 0x00 (0000ms, 1004ms total)
T0428 001:217 JLINK_WriteReg(R13, 0x20000800)  returns 0x00 (0000ms, 1004ms total)
T0428 001:217 JLINK_WriteReg(R14, 0x20000001)  returns 0x00 (0000ms, 1004ms total)
T0428 001:217 JLINK_WriteReg(R15, 0x2000006A)  returns 0x00 (0000ms, 1004ms total)
T0428 001:217 JLINK_WriteReg(XPSR, 0x01000000)  returns 0x00 (0000ms, 1004ms total)
T0428 001:217 JLINK_WriteReg(MSP, 0x20000800)  returns 0x00 (0000ms, 1004ms total)
T0428 001:217 JLINK_WriteReg(PSP, 0x20000800)  returns 0x00 (0000ms, 1004ms total)
T0428 001:217 JLINK_WriteReg(CFBP, 0x00000000)  returns 0x00 (0000ms, 1004ms total)
T0428 001:217 JLINK_SetBPEx(Addr = 0x20000000, Type = 0xFFFFFFF2)  returns 0x00000003 (0000ms, 1004ms total)
T0428 001:217 JLINK_Go() -- CPU_WriteMem(4 bytes @ 0xE0002008) -- CPU_WriteMem(4 bytes @ 0xE000200C) -- CPU_WriteMem(4 bytes @ 0xE0002010) -- CPU_WriteMem(4 bytes @ 0xE0002014) -- CPU_WriteMem(4 bytes @ 0xE0002018) -- CPU_WriteMem(4 bytes @ 0xE000201C) (0008ms, 1004ms total)
T0428 001:225 JLINK_IsHalted() -- CPU_ReadMem(2 bytes @ 0x20000000)  returns TRUE (0007ms, 1012ms total)
T0428 001:233 JLINK_ReadReg(R15)  returns 0x20000000 (0000ms, 1012ms total)
T0428 001:233 JLINK_ClrBPEx(BPHandle = 0x00000003)  returns 0x00 (0000ms, 1012ms total)
T0428 001:233 JLINK_ReadReg(R0)  returns 0x00000000 (0000ms, 1012ms total)
T0428 001:236 JLINK_WriteMem(0x20000000, 0x0164 Bytes, ...) -- Data:  00 BE 0A E0 0D 78 2D 06 68 40 08 24 40 00 00 D3 ... -- CPU_WriteMem(356 bytes @ 0x20000000)  returns 0x164 (0003ms, 1012ms total)
T0428 001:239 JLINK_WriteReg(R0, 0x08000000)  returns 0x00 (0000ms, 1015ms total)
T0428 001:240 JLINK_WriteReg(R1, 0x007A1200)  returns 0x00 (0000ms, 1016ms total)
T0428 001:240 JLINK_WriteReg(R2, 0x00000002)  returns 0x00 (0000ms, 1016ms total)
T0428 001:240 JLINK_WriteReg(R3, 0x00000000)  returns 0x00 (0000ms, 1016ms total)
T0428 001:240 JLINK_WriteReg(R4, 0x00000000)  returns 0x00 (0000ms, 1016ms total)
T0428 001:240 JLINK_WriteReg(R5, 0x00000000)  returns 0x00 (0000ms, 1016ms total)
T0428 001:240 JLINK_WriteReg(R6, 0x00000000)  returns 0x00 (0000ms, 1016ms total)
T0428 001:240 JLINK_WriteReg(R7, 0x00000000)  returns 0x00 (0000ms, 1016ms total)
T0428 001:240 JLINK_WriteReg(R8, 0x00000000)  returns 0x00 (0000ms, 1016ms total)
T0428 001:240 JLINK_WriteReg(R9, 0x20000160)  returns 0x00 (0000ms, 1016ms total)
T0428 001:240 JLINK_WriteReg(R10, 0x00000000)  returns 0x00 (0000ms, 1016ms total)
T0428 001:240 JLINK_WriteReg(R11, 0x00000000)  returns 0x00 (0000ms, 1016ms total)
T0428 001:240 JLINK_WriteReg(R12, 0x00000000)  returns 0x00 (0000ms, 1016ms total)
T0428 001:240 JLINK_WriteReg(R13, 0x20000800)  returns 0x00 (0000ms, 1016ms total)
T0428 001:240 JLINK_WriteReg(R14, 0x20000001)  returns 0x00 (0000ms, 1016ms total)
T0428 001:240 JLINK_WriteReg(R15, 0x20000038)  returns 0x00 (0000ms, 1016ms total)
T0428 001:240 JLINK_WriteReg(XPSR, 0x01000000)  returns 0x00 (0000ms, 1016ms total)
T0428 001:240 JLINK_WriteReg(MSP, 0x20000800)  returns 0x00 (0000ms, 1016ms total)
T0428 001:240 JLINK_WriteReg(PSP, 0x20000800)  returns 0x00 (0000ms, 1016ms total)
T0428 001:240 JLINK_WriteReg(CFBP, 0x00000000)  returns 0x00 (0000ms, 1016ms total)
T0428 001:240 JLINK_SetBPEx(Addr = 0x20000000, Type = 0xFFFFFFF2) -- CPU_ReadMem(2 bytes @ 0x20000000)  returns 0x00000004 (0001ms, 1016ms total)
T0428 001:241 JLINK_Go() -- CPU_WriteMem(2 bytes @ 0x20000000) -- CPU_WriteMem(4 bytes @ 0xE0002008) -- CPU_WriteMem(4 bytes @ 0xE000200C) -- CPU_WriteMem(4 bytes @ 0xE0002010) -- CPU_WriteMem(4 bytes @ 0xE0002014) -- CPU_WriteMem(4 bytes @ 0xE0002018) -- CPU_WriteMem(4 bytes @ 0xE000201C) (0010ms, 1017ms total)
T0428 001:252 JLINK_IsHalted() -- CPU_ReadMem(2 bytes @ 0x20000000)  returns TRUE (0006ms, 1027ms total)
T0428 001:258 JLINK_ReadReg(R15)  returns 0x20000000 (0000ms, 1027ms total)
T0428 001:258 JLINK_ClrBPEx(BPHandle = 0x00000004)  returns 0x00 (0000ms, 1027ms total)
T0428 001:258 JLINK_ReadReg(R0)  returns 0x00000000 (0000ms, 1027ms total)
T0428 001:258 JLINK_WriteMem(0x20000164, 0x0400 Bytes, ...) -- Data:  D0 6C 00 20 E1 01 00 08 19 13 00 08 1B 13 00 08 ... -- CPU_WriteMem(1024 bytes @ 0x20000164)  returns 0x400 (0007ms, 1027ms total)
T0428 001:265 JLINK_WriteReg(R0, 0x08000000)  returns 0x00 (0000ms, 1034ms total)
T0428 001:265 JLINK_WriteReg(R1, 0x00000400)  returns 0x00 (0000ms, 1034ms total)
T0428 001:265 JLINK_WriteReg(R2, 0x20000164)  returns 0x00 (0000ms, 1034ms total)
T0428 001:265 JLINK_WriteReg(R3, 0x00000000)  returns 0x00 (0000ms, 1034ms total)
T0428 001:265 JLINK_WriteReg(R4, 0x00000000)  returns 0x00 (0000ms, 1034ms total)
T0428 001:265 JLINK_WriteReg(R5, 0x00000000)  returns 0x00 (0000ms, 1034ms total)
T0428 001:265 JLINK_WriteReg(R6, 0x00000000)  returns 0x00 (0000ms, 1034ms total)
T0428 001:265 JLINK_WriteReg(R7, 0x00000000)  returns 0x00 (0000ms, 1034ms total)
T0428 001:265 JLINK_WriteReg(R8, 0x00000000)  returns 0x00 (0000ms, 1034ms total)
T0428 001:265 JLINK_WriteReg(R9, 0x20000160)  returns 0x00 (0000ms, 1034ms total)
T0428 001:265 JLINK_WriteReg(R10, 0x00000000)  returns 0x00 (0000ms, 1034ms total)
T0428 001:265 JLINK_WriteReg(R11, 0x00000000)  returns 0x00 (0000ms, 1034ms total)
T0428 001:265 JLINK_WriteReg(R12, 0x00000000)  returns 0x00 (0000ms, 1034ms total)
T0428 001:265 JLINK_WriteReg(R13, 0x20000800)  returns 0x00 (0000ms, 1034ms total)
T0428 001:265 JLINK_WriteReg(R14, 0x20000001)  returns 0x00 (0000ms, 1034ms total)
T0428 001:265 JLINK_WriteReg(R15, 0x200000F4)  returns 0x00 (0000ms, 1034ms total)
T0428 001:265 JLINK_WriteReg(XPSR, 0x01000000)  returns 0x00 (0000ms, 1034ms total)
T0428 001:265 JLINK_WriteReg(MSP, 0x20000800)  returns 0x00 (0000ms, 1034ms total)
T0428 001:265 JLINK_WriteReg(PSP, 0x20000800)  returns 0x00 (0000ms, 1034ms total)
T0428 001:265 JLINK_WriteReg(CFBP, 0x00000000)  returns 0x00 (0000ms, 1034ms total)
T0428 001:265 JLINK_SetBPEx(Addr = 0x20000000, Type = 0xFFFFFFF2)  returns 0x00000005 (0000ms, 1034ms total)
T0428 001:265 JLINK_Go() -- CPU_WriteMem(4 bytes @ 0xE0002008) -- CPU_WriteMem(4 bytes @ 0xE000200C) -- CPU_WriteMem(4 bytes @ 0xE0002010) -- CPU_WriteMem(4 bytes @ 0xE0002014) -- CPU_WriteMem(4 bytes @ 0xE0002018) -- CPU_WriteMem(4 bytes @ 0xE000201C) (0009ms, 1034ms total)
T0428 001:274 JLINK_IsHalted()  returns FALSE (0001ms, 1043ms total)
T0428 001:325 JLINK_IsHalted() -- CPU_ReadMem(2 bytes @ 0x20000000)  returns TRUE (0006ms, 1043ms total)
T0428 001:332 JLINK_ReadReg(R15)  returns 0x20000000 (0000ms, 1043ms total)
T0428 001:332 JLINK_ClrBPEx(BPHandle = 0x00000005)  returns 0x00 (0000ms, 1043ms total)
T0428 001:332 JLINK_ReadReg(R0)  returns 0x00000000 (0000ms, 1043ms total)
T0428 001:332 JLINK_WriteMem(0x20000164, 0x0400 Bytes, ...) -- Data:  08 60 70 47 00 21 3D 49 82 79 00 2A 3A D0 0A 46 ... -- CPU_WriteMem(1024 bytes @ 0x20000164)  returns 0x400 (0007ms, 1043ms total)
T0428 001:339 JLINK_WriteReg(R0, 0x08000400)  returns 0x00 (0000ms, 1050ms total)
T0428 001:339 JLINK_WriteReg(R1, 0x00000400)  returns 0x00 (0000ms, 1050ms total)
T0428 001:339 JLINK_WriteReg(R2, 0x20000164)  returns 0x00 (0000ms, 1050ms total)
T0428 001:339 JLINK_WriteReg(R3, 0x00000000)  returns 0x00 (0000ms, 1050ms total)
T0428 001:339 JLINK_WriteReg(R4, 0x00000000)  returns 0x00 (0000ms, 1050ms total)
T0428 001:339 JLINK_WriteReg(R5, 0x00000000)  returns 0x00 (0000ms, 1050ms total)
T0428 001:339 JLINK_WriteReg(R6, 0x00000000)  returns 0x00 (0000ms, 1050ms total)
T0428 001:339 JLINK_WriteReg(R7, 0x00000000)  returns 0x00 (0000ms, 1050ms total)
T0428 001:339 JLINK_WriteReg(R8, 0x00000000)  returns 0x00 (0000ms, 1050ms total)
T0428 001:339 JLINK_WriteReg(R9, 0x20000160)  returns 0x00 (0000ms, 1050ms total)
T0428 001:339 JLINK_WriteReg(R10, 0x00000000)  returns 0x00 (0000ms, 1050ms total)
T0428 001:339 JLINK_WriteReg(R11, 0x00000000)  returns 0x00 (0000ms, 1050ms total)
T0428 001:339 JLINK_WriteReg(R12, 0x00000000)  returns 0x00 (0000ms, 1050ms total)
T0428 001:339 JLINK_WriteReg(R13, 0x20000800)  returns 0x00 (0000ms, 1050ms total)
T0428 001:339 JLINK_WriteReg(R14, 0x20000001)  returns 0x00 (0000ms, 1050ms total)
T0428 001:339 JLINK_WriteReg(R15, 0x200000F4)  returns 0x00 (0000ms, 1050ms total)
T0428 001:339 JLINK_WriteReg(XPSR, 0x01000000)  returns 0x00 (0000ms, 1050ms total)
T0428 001:339 JLINK_WriteReg(MSP, 0x20000800)  returns 0x00 (0000ms, 1050ms total)
T0428 001:339 JLINK_WriteReg(PSP, 0x20000800)  returns 0x00 (0000ms, 1050ms total)
T0428 001:339 JLINK_WriteReg(CFBP, 0x00000000)  returns 0x00 (0000ms, 1050ms total)
T0428 001:339 JLINK_SetBPEx(Addr = 0x20000000, Type = 0xFFFFFFF2)  returns 0x00000006 (0000ms, 1050ms total)
T0428 001:339 JLINK_Go() -- CPU_WriteMem(4 bytes @ 0xE0002008) -- CPU_WriteMem(4 bytes @ 0xE000200C) -- CPU_WriteMem(4 bytes @ 0xE0002010) -- CPU_WriteMem(4 bytes @ 0xE0002014) -- CPU_WriteMem(4 bytes @ 0xE0002018) -- CPU_WriteMem(4 bytes @ 0xE000201C) (0009ms, 1050ms total)
T0428 001:348 JLINK_IsHalted()  returns FALSE (0001ms, 1059ms total)
T0428 001:399 JLINK_IsHalted() -- CPU_ReadMem(2 bytes @ 0x20000000)  returns TRUE (0006ms, 1059ms total)
T0428 001:405 JLINK_ReadReg(R15)  returns 0x20000000 (0000ms, 1059ms total)
T0428 001:405 JLINK_ClrBPEx(BPHandle = 0x00000006)  returns 0x00 (0000ms, 1059ms total)
T0428 001:405 JLINK_ReadReg(R0)  returns 0x00000000 (0000ms, 1059ms total)
T0428 001:405 JLINK_WriteMem(0x20000164, 0x0400 Bytes, ...) -- Data:  53 F8 24 30 93 43 12 4C 08 34 8D 10 44 F8 25 30 ... -- CPU_WriteMem(1024 bytes @ 0x20000164)  returns 0x400 (0007ms, 1059ms total)
T0428 001:412 JLINK_WriteReg(R0, 0x08000800)  returns 0x00 (0000ms, 1066ms total)
T0428 001:412 JLINK_WriteReg(R1, 0x00000400)  returns 0x00 (0000ms, 1066ms total)
T0428 001:412 JLINK_WriteReg(R2, 0x20000164)  returns 0x00 (0000ms, 1066ms total)
T0428 001:412 JLINK_WriteReg(R3, 0x00000000)  returns 0x00 (0000ms, 1066ms total)
T0428 001:412 JLINK_WriteReg(R4, 0x00000000)  returns 0x00 (0001ms, 1066ms total)
T0428 001:413 JLINK_WriteReg(R5, 0x00000000)  returns 0x00 (0000ms, 1067ms total)
T0428 001:413 JLINK_WriteReg(R6, 0x00000000)  returns 0x00 (0000ms, 1067ms total)
T0428 001:413 JLINK_WriteReg(R7, 0x00000000)  returns 0x00 (0000ms, 1067ms total)
T0428 001:413 JLINK_WriteReg(R8, 0x00000000)  returns 0x00 (0000ms, 1067ms total)
T0428 001:413 JLINK_WriteReg(R9, 0x20000160)  returns 0x00 (0000ms, 1067ms total)
T0428 001:413 JLINK_WriteReg(R10, 0x00000000)  returns 0x00 (0000ms, 1067ms total)
T0428 001:413 JLINK_WriteReg(R11, 0x00000000)  returns 0x00 (0000ms, 1067ms total)
T0428 001:413 JLINK_WriteReg(R12, 0x00000000)  returns 0x00 (0000ms, 1067ms total)
T0428 001:413 JLINK_WriteReg(R13, 0x20000800)  returns 0x00 (0000ms, 1067ms total)
T0428 001:413 JLINK_WriteReg(R14, 0x20000001)  returns 0x00 (0000ms, 1067ms total)
T0428 001:413 JLINK_WriteReg(R15, 0x200000F4)  returns 0x00 (0000ms, 1067ms total)
T0428 001:413 JLINK_WriteReg(XPSR, 0x01000000)  returns 0x00 (0000ms, 1067ms total)
T0428 001:413 JLINK_WriteReg(MSP, 0x20000800)  returns 0x00 (0000ms, 1067ms total)
T0428 001:413 JLINK_WriteReg(PSP, 0x20000800)  returns 0x00 (0000ms, 1067ms total)
T0428 001:413 JLINK_WriteReg(CFBP, 0x00000000)  returns 0x00 (0000ms, 1067ms total)
T0428 001:413 JLINK_SetBPEx(Addr = 0x20000000, Type = 0xFFFFFFF2)  returns 0x00000007 (0000ms, 1067ms total)
T0428 001:413 JLINK_Go() -- CPU_WriteMem(4 bytes @ 0xE0002008) -- CPU_WriteMem(4 bytes @ 0xE000200C) -- CPU_WriteMem(4 bytes @ 0xE0002010) -- CPU_WriteMem(4 bytes @ 0xE0002014) -- CPU_WriteMem(4 bytes @ 0xE0002018) -- CPU_WriteMem(4 bytes @ 0xE000201C) (0007ms, 1067ms total)
T0428 001:420 JLINK_IsHalted()  returns FALSE (0001ms, 1074ms total)
T0428 001:471 JLINK_IsHalted() -- CPU_ReadMem(2 bytes @ 0x20000000)  returns TRUE (0006ms, 1074ms total)
T0428 001:477 JLINK_ReadReg(R15)  returns 0x20000000 (0000ms, 1074ms total)
T0428 001:477 JLINK_ClrBPEx(BPHandle = 0x00000007)  returns 0x00 (0000ms, 1074ms total)
T0428 001:477 JLINK_ReadReg(R0)  returns 0x00000000 (0000ms, 1074ms total)
T0428 001:477 JLINK_WriteMem(0x20000164, 0x0400 Bytes, ...) -- Data:  BF 48 84 42 08 D1 01 21 80 14 FF F7 A9 FF 00 21 ... -- CPU_WriteMem(1024 bytes @ 0x20000164)  returns 0x400 (0007ms, 1074ms total)
T0428 001:484 JLINK_WriteReg(R0, 0x08000C00)  returns 0x00 (0000ms, 1081ms total)
T0428 001:484 JLINK_WriteReg(R1, 0x00000400)  returns 0x00 (0001ms, 1081ms total)
T0428 001:485 JLINK_WriteReg(R2, 0x20000164)  returns 0x00 (0000ms, 1082ms total)
T0428 001:485 JLINK_WriteReg(R3, 0x00000000)  returns 0x00 (0000ms, 1082ms total)
T0428 001:485 JLINK_WriteReg(R4, 0x00000000)  returns 0x00 (0000ms, 1082ms total)
T0428 001:485 JLINK_WriteReg(R5, 0x00000000)  returns 0x00 (0000ms, 1082ms total)
T0428 001:485 JLINK_WriteReg(R6, 0x00000000)  returns 0x00 (0000ms, 1082ms total)
T0428 001:485 JLINK_WriteReg(R7, 0x00000000)  returns 0x00 (0000ms, 1082ms total)
T0428 001:485 JLINK_WriteReg(R8, 0x00000000)  returns 0x00 (0000ms, 1082ms total)
T0428 001:485 JLINK_WriteReg(R9, 0x20000160)  returns 0x00 (0000ms, 1082ms total)
T0428 001:485 JLINK_WriteReg(R10, 0x00000000)  returns 0x00 (0000ms, 1082ms total)
T0428 001:485 JLINK_WriteReg(R11, 0x00000000)  returns 0x00 (0000ms, 1082ms total)
T0428 001:485 JLINK_WriteReg(R12, 0x00000000)  returns 0x00 (0000ms, 1082ms total)
T0428 001:485 JLINK_WriteReg(R13, 0x20000800)  returns 0x00 (0000ms, 1082ms total)
T0428 001:485 JLINK_WriteReg(R14, 0x20000001)  returns 0x00 (0000ms, 1082ms total)
T0428 001:485 JLINK_WriteReg(R15, 0x200000F4)  returns 0x00 (0000ms, 1082ms total)
T0428 001:485 JLINK_WriteReg(XPSR, 0x01000000)  returns 0x00 (0000ms, 1082ms total)
T0428 001:485 JLINK_WriteReg(MSP, 0x20000800)  returns 0x00 (0000ms, 1082ms total)
T0428 001:485 JLINK_WriteReg(PSP, 0x20000800)  returns 0x00 (0000ms, 1082ms total)
T0428 001:485 JLINK_WriteReg(CFBP, 0x00000000)  returns 0x00 (0000ms, 1082ms total)
T0428 001:485 JLINK_SetBPEx(Addr = 0x20000000, Type = 0xFFFFFFF2)  returns 0x00000008 (0000ms, 1082ms total)
T0428 001:485 JLINK_Go() -- CPU_WriteMem(4 bytes @ 0xE0002008) -- CPU_WriteMem(4 bytes @ 0xE000200C) -- CPU_WriteMem(4 bytes @ 0xE0002010) -- CPU_WriteMem(4 bytes @ 0xE0002014) -- CPU_WriteMem(4 bytes @ 0xE0002018) -- CPU_WriteMem(4 bytes @ 0xE000201C) (0008ms, 1082ms total)
T0428 001:494 JLINK_IsHalted()  returns FALSE (0001ms, 1090ms total)
T0428 001:545 JLINK_IsHalted() -- CPU_ReadMem(2 bytes @ 0x20000000)  returns TRUE (0006ms, 1090ms total)
T0428 001:551 JLINK_ReadReg(R15)  returns 0x20000000 (0000ms, 1090ms total)
T0428 001:551 JLINK_ClrBPEx(BPHandle = 0x00000008)  returns 0x00 (0000ms, 1090ms total)
T0428 001:551 JLINK_ReadReg(R0)  returns 0x00000000 (0000ms, 1090ms total)
T0428 001:552 JLINK_WriteMem(0x20000164, 0x0400 Bytes, ...) -- Data:  CA 00 00 EB 0A 10 31 68 49 00 B0 FB F1 F8 07 E0 ... -- CPU_WriteMem(1024 bytes @ 0x20000164)  returns 0x400 (0007ms, 1090ms total)
T0428 001:559 JLINK_WriteReg(R0, 0x08001000)  returns 0x00 (0000ms, 1097ms total)
T0428 001:559 JLINK_WriteReg(R1, 0x00000400)  returns 0x00 (0000ms, 1097ms total)
T0428 001:559 JLINK_WriteReg(R2, 0x20000164)  returns 0x00 (0000ms, 1097ms total)
T0428 001:559 JLINK_WriteReg(R3, 0x00000000)  returns 0x00 (0000ms, 1097ms total)
T0428 001:559 JLINK_WriteReg(R4, 0x00000000)  returns 0x00 (0000ms, 1097ms total)
T0428 001:559 JLINK_WriteReg(R5, 0x00000000)  returns 0x00 (0000ms, 1097ms total)
T0428 001:559 JLINK_WriteReg(R6, 0x00000000)  returns 0x00 (0000ms, 1097ms total)
T0428 001:559 JLINK_WriteReg(R7, 0x00000000)  returns 0x00 (0000ms, 1097ms total)
T0428 001:559 JLINK_WriteReg(R8, 0x00000000)  returns 0x00 (0000ms, 1097ms total)
T0428 001:559 JLINK_WriteReg(R9, 0x20000160)  returns 0x00 (0000ms, 1097ms total)
T0428 001:559 JLINK_WriteReg(R10, 0x00000000)  returns 0x00 (0000ms, 1097ms total)
T0428 001:559 JLINK_WriteReg(R11, 0x00000000)  returns 0x00 (0000ms, 1097ms total)
T0428 001:559 JLINK_WriteReg(R12, 0x00000000)  returns 0x00 (0000ms, 1097ms total)
T0428 001:559 JLINK_WriteReg(R13, 0x20000800)  returns 0x00 (0000ms, 1097ms total)
T0428 001:559 JLINK_WriteReg(R14, 0x20000001)  returns 0x00 (0000ms, 1097ms total)
T0428 001:559 JLINK_WriteReg(R15, 0x200000F4)  returns 0x00 (0000ms, 1097ms total)
T0428 001:559 JLINK_WriteReg(XPSR, 0x01000000)  returns 0x00 (0000ms, 1097ms total)
T0428 001:559 JLINK_WriteReg(MSP, 0x20000800)  returns 0x00 (0000ms, 1097ms total)
T0428 001:559 JLINK_WriteReg(PSP, 0x20000800)  returns 0x00 (0000ms, 1097ms total)
T0428 001:559 JLINK_WriteReg(CFBP, 0x00000000)  returns 0x00 (0000ms, 1097ms total)
T0428 001:559 JLINK_SetBPEx(Addr = 0x20000000, Type = 0xFFFFFFF2)  returns 0x00000009 (0000ms, 1097ms total)
T0428 001:559 JLINK_Go() -- CPU_WriteMem(4 bytes @ 0xE0002008) -- CPU_WriteMem(4 bytes @ 0xE000200C) -- CPU_WriteMem(4 bytes @ 0xE0002010) -- CPU_WriteMem(4 bytes @ 0xE0002014) -- CPU_WriteMem(4 bytes @ 0xE0002018) -- CPU_WriteMem(4 bytes @ 0xE000201C) (0009ms, 1097ms total)
T0428 001:568 JLINK_IsHalted()  returns FALSE (0001ms, 1106ms total)
T0428 001:619 JLINK_IsHalted() -- CPU_ReadMem(2 bytes @ 0x20000000)  returns TRUE (0007ms, 1106ms total)
T0428 001:626 JLINK_ReadReg(R15)  returns 0x20000000 (0000ms, 1106ms total)
T0428 001:626 JLINK_ClrBPEx(BPHandle = 0x00000009)  returns 0x00 (0000ms, 1106ms total)
T0428 001:626 JLINK_ReadReg(R0)  returns 0x00000000 (0000ms, 1106ms total)
T0428 001:626 JLINK_WriteMem(0x20000164, 0x0400 Bytes, ...) -- Data:  08 60 04 F0 1F 00 40 EA 05 06 30 46 00 F0 66 FA ... -- CPU_WriteMem(1024 bytes @ 0x20000164)  returns 0x400 (0007ms, 1106ms total)
T0428 001:633 JLINK_WriteReg(R0, 0x08001400)  returns 0x00 (0000ms, 1113ms total)
T0428 001:633 JLINK_WriteReg(R1, 0x00000400)  returns 0x00 (0000ms, 1113ms total)
T0428 001:633 JLINK_WriteReg(R2, 0x20000164)  returns 0x00 (0000ms, 1113ms total)
T0428 001:633 JLINK_WriteReg(R3, 0x00000000)  returns 0x00 (0000ms, 1113ms total)
T0428 001:633 JLINK_WriteReg(R4, 0x00000000)  returns 0x00 (0000ms, 1113ms total)
T0428 001:633 JLINK_WriteReg(R5, 0x00000000)  returns 0x00 (0000ms, 1113ms total)
T0428 001:633 JLINK_WriteReg(R6, 0x00000000)  returns 0x00 (0000ms, 1113ms total)
T0428 001:633 JLINK_WriteReg(R7, 0x00000000)  returns 0x00 (0000ms, 1113ms total)
T0428 001:633 JLINK_WriteReg(R8, 0x00000000)  returns 0x00 (0000ms, 1113ms total)
T0428 001:633 JLINK_WriteReg(R9, 0x20000160)  returns 0x00 (0000ms, 1113ms total)
T0428 001:633 JLINK_WriteReg(R10, 0x00000000)  returns 0x00 (0000ms, 1113ms total)
T0428 001:633 JLINK_WriteReg(R11, 0x00000000)  returns 0x00 (0000ms, 1113ms total)
T0428 001:633 JLINK_WriteReg(R12, 0x00000000)  returns 0x00 (0000ms, 1113ms total)
T0428 001:633 JLINK_WriteReg(R13, 0x20000800)  returns 0x00 (0000ms, 1113ms total)
T0428 001:633 JLINK_WriteReg(R14, 0x20000001)  returns 0x00 (0000ms, 1113ms total)
T0428 001:633 JLINK_WriteReg(R15, 0x200000F4)  returns 0x00 (0000ms, 1113ms total)
T0428 001:633 JLINK_WriteReg(XPSR, 0x01000000)  returns 0x00 (0000ms, 1113ms total)
T0428 001:633 JLINK_WriteReg(MSP, 0x20000800)  returns 0x00 (0000ms, 1113ms total)
T0428 001:633 JLINK_WriteReg(PSP, 0x20000800)  returns 0x00 (0000ms, 1113ms total)
T0428 001:633 JLINK_WriteReg(CFBP, 0x00000000)  returns 0x00 (0000ms, 1113ms total)
T0428 001:633 JLINK_SetBPEx(Addr = 0x20000000, Type = 0xFFFFFFF2)  returns 0x0000000A (0000ms, 1113ms total)
T0428 001:633 JLINK_Go() -- CPU_WriteMem(4 bytes @ 0xE0002008) -- CPU_WriteMem(4 bytes @ 0xE000200C) -- CPU_WriteMem(4 bytes @ 0xE0002010) -- CPU_WriteMem(4 bytes @ 0xE0002014) -- CPU_WriteMem(4 bytes @ 0xE0002018) -- CPU_WriteMem(4 bytes @ 0xE000201C) (0008ms, 1113ms total)
T0428 001:641 JLINK_IsHalted()  returns FALSE (0001ms, 1121ms total)
T0428 001:692 JLINK_IsHalted() -- CPU_ReadMem(2 bytes @ 0x20000000)  returns TRUE (0006ms, 1121ms total)
T0428 001:698 JLINK_ReadReg(R15)  returns 0x20000000 (0000ms, 1121ms total)
T0428 001:698 JLINK_ClrBPEx(BPHandle = 0x0000000A)  returns 0x00 (0000ms, 1121ms total)
T0428 001:698 JLINK_ReadReg(R0)  returns 0x00000000 (0000ms, 1121ms total)
T0428 001:698 JLINK_WriteMem(0x20000164, 0x0400 Bytes, ...) -- Data:  C1 B2 0C 20 FF F7 7F FE 06 48 00 88 01 12 0D 20 ... -- CPU_WriteMem(1024 bytes @ 0x20000164)  returns 0x400 (0008ms, 1121ms total)
T0428 001:706 JLINK_WriteReg(R0, 0x08001800)  returns 0x00 (0000ms, 1129ms total)
T0428 001:706 JLINK_WriteReg(R1, 0x00000400)  returns 0x00 (0000ms, 1129ms total)
T0428 001:706 JLINK_WriteReg(R2, 0x20000164)  returns 0x00 (0000ms, 1129ms total)
T0428 001:706 JLINK_WriteReg(R3, 0x00000000)  returns 0x00 (0000ms, 1129ms total)
T0428 001:706 JLINK_WriteReg(R4, 0x00000000)  returns 0x00 (0000ms, 1129ms total)
T0428 001:706 JLINK_WriteReg(R5, 0x00000000)  returns 0x00 (0000ms, 1129ms total)
T0428 001:706 JLINK_WriteReg(R6, 0x00000000)  returns 0x00 (0000ms, 1129ms total)
T0428 001:706 JLINK_WriteReg(R7, 0x00000000)  returns 0x00 (0000ms, 1129ms total)
T0428 001:706 JLINK_WriteReg(R8, 0x00000000)  returns 0x00 (0000ms, 1129ms total)
T0428 001:706 JLINK_WriteReg(R9, 0x20000160)  returns 0x00 (0000ms, 1129ms total)
T0428 001:706 JLINK_WriteReg(R10, 0x00000000)  returns 0x00 (0000ms, 1129ms total)
T0428 001:706 JLINK_WriteReg(R11, 0x00000000)  returns 0x00 (0000ms, 1129ms total)
T0428 001:706 JLINK_WriteReg(R12, 0x00000000)  returns 0x00 (0000ms, 1129ms total)
T0428 001:706 JLINK_WriteReg(R13, 0x20000800)  returns 0x00 (0000ms, 1129ms total)
T0428 001:706 JLINK_WriteReg(R14, 0x20000001)  returns 0x00 (0000ms, 1129ms total)
T0428 001:706 JLINK_WriteReg(R15, 0x200000F4)  returns 0x00 (0000ms, 1129ms total)
T0428 001:706 JLINK_WriteReg(XPSR, 0x01000000)  returns 0x00 (0000ms, 1129ms total)
T0428 001:706 JLINK_WriteReg(MSP, 0x20000800)  returns 0x00 (0000ms, 1129ms total)
T0428 001:706 JLINK_WriteReg(PSP, 0x20000800)  returns 0x00 (0000ms, 1129ms total)
T0428 001:706 JLINK_WriteReg(CFBP, 0x00000000)  returns 0x00 (0000ms, 1129ms total)
T0428 001:706 JLINK_SetBPEx(Addr = 0x20000000, Type = 0xFFFFFFF2)  returns 0x0000000B (0000ms, 1129ms total)
T0428 001:706 JLINK_Go() -- CPU_WriteMem(4 bytes @ 0xE0002008) -- CPU_WriteMem(4 bytes @ 0xE000200C) -- CPU_WriteMem(4 bytes @ 0xE0002010) -- CPU_WriteMem(4 bytes @ 0xE0002014) -- CPU_WriteMem(4 bytes @ 0xE0002018) -- CPU_WriteMem(4 bytes @ 0xE000201C) (0008ms, 1129ms total)
T0428 001:714 JLINK_IsHalted()  returns FALSE (0001ms, 1137ms total)
T0428 001:765 JLINK_IsHalted() -- CPU_ReadMem(2 bytes @ 0x20000000)  returns TRUE (0006ms, 1137ms total)
T0428 001:771 JLINK_ReadReg(R15)  returns 0x20000000 (0000ms, 1137ms total)
T0428 001:771 JLINK_ClrBPEx(BPHandle = 0x0000000B)  returns 0x00 (0000ms, 1137ms total)
T0428 001:771 JLINK_ReadReg(R0)  returns 0x00000000 (0000ms, 1137ms total)
T0428 001:771 JLINK_WriteMem(0x20000164, 0x0400 Bytes, ...) -- Data:  08 B1 05 F0 3F FE 10 BD 28 00 00 20 E8 00 00 20 ... -- CPU_WriteMem(1024 bytes @ 0x20000164)  returns 0x400 (0007ms, 1137ms total)
T0428 001:778 JLINK_WriteReg(R0, 0x08001C00)  returns 0x00 (0000ms, 1144ms total)
T0428 001:778 JLINK_WriteReg(R1, 0x00000400)  returns 0x00 (0001ms, 1144ms total)
T0428 001:779 JLINK_WriteReg(R2, 0x20000164)  returns 0x00 (0000ms, 1145ms total)
T0428 001:779 JLINK_WriteReg(R3, 0x00000000)  returns 0x00 (0000ms, 1145ms total)
T0428 001:779 JLINK_WriteReg(R4, 0x00000000)  returns 0x00 (0000ms, 1145ms total)
T0428 001:779 JLINK_WriteReg(R5, 0x00000000)  returns 0x00 (0000ms, 1145ms total)
T0428 001:779 JLINK_WriteReg(R6, 0x00000000)  returns 0x00 (0000ms, 1145ms total)
T0428 001:779 JLINK_WriteReg(R7, 0x00000000)  returns 0x00 (0000ms, 1145ms total)
T0428 001:779 JLINK_WriteReg(R8, 0x00000000)  returns 0x00 (0000ms, 1145ms total)
T0428 001:779 JLINK_WriteReg(R9, 0x20000160)  returns 0x00 (0000ms, 1145ms total)
T0428 001:779 JLINK_WriteReg(R10, 0x00000000)  returns 0x00 (0000ms, 1145ms total)
T0428 001:779 JLINK_WriteReg(R11, 0x00000000)  returns 0x00 (0000ms, 1145ms total)
T0428 001:779 JLINK_WriteReg(R12, 0x00000000)  returns 0x00 (0000ms, 1145ms total)
T0428 001:779 JLINK_WriteReg(R13, 0x20000800)  returns 0x00 (0000ms, 1145ms total)
T0428 001:779 JLINK_WriteReg(R14, 0x20000001)  returns 0x00 (0000ms, 1145ms total)
T0428 001:779 JLINK_WriteReg(R15, 0x200000F4)  returns 0x00 (0000ms, 1145ms total)
T0428 001:779 JLINK_WriteReg(XPSR, 0x01000000)  returns 0x00 (0000ms, 1145ms total)
T0428 001:779 JLINK_WriteReg(MSP, 0x20000800)  returns 0x00 (0000ms, 1145ms total)
T0428 001:779 JLINK_WriteReg(PSP, 0x20000800)  returns 0x00 (0000ms, 1145ms total)
T0428 001:779 JLINK_WriteReg(CFBP, 0x00000000)  returns 0x00 (0000ms, 1145ms total)
T0428 001:779 JLINK_SetBPEx(Addr = 0x20000000, Type = 0xFFFFFFF2)  returns 0x0000000C (0000ms, 1145ms total)
T0428 001:779 JLINK_Go() -- CPU_WriteMem(4 bytes @ 0xE0002008) -- CPU_WriteMem(4 bytes @ 0xE000200C) -- CPU_WriteMem(4 bytes @ 0xE0002010) -- CPU_WriteMem(4 bytes @ 0xE0002014) -- CPU_WriteMem(4 bytes @ 0xE0002018) -- CPU_WriteMem(4 bytes @ 0xE000201C) (0009ms, 1145ms total)
T0428 001:788 JLINK_IsHalted()  returns FALSE (0001ms, 1154ms total)
T0428 001:839 JLINK_IsHalted() -- CPU_ReadMem(2 bytes @ 0x20000000)  returns TRUE (0006ms, 1154ms total)
T0428 001:845 JLINK_ReadReg(R15)  returns 0x20000000 (0000ms, 1154ms total)
T0428 001:845 JLINK_ClrBPEx(BPHandle = 0x0000000C)  returns 0x00 (0000ms, 1154ms total)
T0428 001:845 JLINK_ReadReg(R0)  returns 0x00000000 (0000ms, 1154ms total)
T0428 001:845 JLINK_WriteMem(0x20000164, 0x0400 Bytes, ...) -- Data:  86 B2 3B 48 A0 F8 AE 60 B0 F8 B0 60 B0 F8 AE 00 ... -- CPU_WriteMem(1024 bytes @ 0x20000164)  returns 0x400 (0008ms, 1154ms total)
T0428 001:853 JLINK_WriteReg(R0, 0x08002000)  returns 0x00 (0000ms, 1162ms total)
T0428 001:853 JLINK_WriteReg(R1, 0x00000400)  returns 0x00 (0000ms, 1162ms total)
T0428 001:853 JLINK_WriteReg(R2, 0x20000164)  returns 0x00 (0000ms, 1162ms total)
T0428 001:853 JLINK_WriteReg(R3, 0x00000000)  returns 0x00 (0000ms, 1162ms total)
T0428 001:853 JLINK_WriteReg(R4, 0x00000000)  returns 0x00 (0000ms, 1162ms total)
T0428 001:853 JLINK_WriteReg(R5, 0x00000000)  returns 0x00 (0000ms, 1162ms total)
T0428 001:853 JLINK_WriteReg(R6, 0x00000000)  returns 0x00 (0000ms, 1162ms total)
T0428 001:853 JLINK_WriteReg(R7, 0x00000000)  returns 0x00 (0000ms, 1162ms total)
T0428 001:853 JLINK_WriteReg(R8, 0x00000000)  returns 0x00 (0000ms, 1162ms total)
T0428 001:853 JLINK_WriteReg(R9, 0x20000160)  returns 0x00 (0000ms, 1162ms total)
T0428 001:853 JLINK_WriteReg(R10, 0x00000000)  returns 0x00 (0000ms, 1162ms total)
T0428 001:853 JLINK_WriteReg(R11, 0x00000000)  returns 0x00 (0000ms, 1162ms total)
T0428 001:853 JLINK_WriteReg(R12, 0x00000000)  returns 0x00 (0000ms, 1162ms total)
T0428 001:853 JLINK_WriteReg(R13, 0x20000800)  returns 0x00 (0000ms, 1162ms total)
T0428 001:853 JLINK_WriteReg(R14, 0x20000001)  returns 0x00 (0000ms, 1162ms total)
T0428 001:853 JLINK_WriteReg(R15, 0x200000F4)  returns 0x00 (0000ms, 1162ms total)
T0428 001:853 JLINK_WriteReg(XPSR, 0x01000000)  returns 0x00 (0000ms, 1162ms total)
T0428 001:853 JLINK_WriteReg(MSP, 0x20000800)  returns 0x00 (0000ms, 1162ms total)
T0428 001:853 JLINK_WriteReg(PSP, 0x20000800)  returns 0x00 (0000ms, 1162ms total)
T0428 001:853 JLINK_WriteReg(CFBP, 0x00000000)  returns 0x00 (0000ms, 1162ms total)
T0428 001:853 JLINK_SetBPEx(Addr = 0x20000000, Type = 0xFFFFFFF2)  returns 0x0000000D (0000ms, 1162ms total)
T0428 001:853 JLINK_Go() -- CPU_WriteMem(4 bytes @ 0xE0002008) -- CPU_WriteMem(4 bytes @ 0xE000200C) -- CPU_WriteMem(4 bytes @ 0xE0002010) -- CPU_WriteMem(4 bytes @ 0xE0002014) -- CPU_WriteMem(4 bytes @ 0xE0002018) -- CPU_WriteMem(4 bytes @ 0xE000201C) (0009ms, 1162ms total)
T0428 001:862 JLINK_IsHalted()  returns FALSE (0001ms, 1171ms total)
T0428 001:913 JLINK_IsHalted() -- CPU_ReadMem(2 bytes @ 0x20000000)  returns TRUE (0006ms, 1171ms total)
T0428 001:919 JLINK_ReadReg(R15)  returns 0x20000000 (0000ms, 1171ms total)
T0428 001:919 JLINK_ClrBPEx(BPHandle = 0x0000000D)  returns 0x00 (0000ms, 1171ms total)
T0428 001:919 JLINK_ReadReg(R0)  returns 0x00000000 (0000ms, 1171ms total)
T0428 001:919 JLINK_WriteMem(0x20000164, 0x0400 Bytes, ...) -- Data:  00 BF D3 E7 10 B5 02 46 0A B9 00 20 10 BD 90 78 ... -- CPU_WriteMem(1024 bytes @ 0x20000164)  returns 0x400 (0007ms, 1171ms total)
T0428 001:926 JLINK_WriteReg(R0, 0x08002400)  returns 0x00 (0000ms, 1178ms total)
T0428 001:926 JLINK_WriteReg(R1, 0x00000400)  returns 0x00 (0000ms, 1178ms total)
T0428 001:926 JLINK_WriteReg(R2, 0x20000164)  returns 0x00 (0000ms, 1178ms total)
T0428 001:926 JLINK_WriteReg(R3, 0x00000000)  returns 0x00 (0000ms, 1178ms total)
T0428 001:926 JLINK_WriteReg(R4, 0x00000000)  returns 0x00 (0000ms, 1178ms total)
T0428 001:926 JLINK_WriteReg(R5, 0x00000000)  returns 0x00 (0000ms, 1178ms total)
T0428 001:926 JLINK_WriteReg(R6, 0x00000000)  returns 0x00 (0000ms, 1178ms total)
T0428 001:926 JLINK_WriteReg(R7, 0x00000000)  returns 0x00 (0000ms, 1178ms total)
T0428 001:926 JLINK_WriteReg(R8, 0x00000000)  returns 0x00 (0000ms, 1178ms total)
T0428 001:926 JLINK_WriteReg(R9, 0x20000160)  returns 0x00 (0000ms, 1178ms total)
T0428 001:926 JLINK_WriteReg(R10, 0x00000000)  returns 0x00 (0000ms, 1178ms total)
T0428 001:926 JLINK_WriteReg(R11, 0x00000000)  returns 0x00 (0000ms, 1178ms total)
T0428 001:926 JLINK_WriteReg(R12, 0x00000000)  returns 0x00 (0000ms, 1178ms total)
T0428 001:926 JLINK_WriteReg(R13, 0x20000800)  returns 0x00 (0000ms, 1178ms total)
T0428 001:926 JLINK_WriteReg(R14, 0x20000001)  returns 0x00 (0000ms, 1178ms total)
T0428 001:926 JLINK_WriteReg(R15, 0x200000F4)  returns 0x00 (0000ms, 1178ms total)
T0428 001:926 JLINK_WriteReg(XPSR, 0x01000000)  returns 0x00 (0000ms, 1178ms total)
T0428 001:926 JLINK_WriteReg(MSP, 0x20000800)  returns 0x00 (0000ms, 1178ms total)
T0428 001:926 JLINK_WriteReg(PSP, 0x20000800)  returns 0x00 (0000ms, 1178ms total)
T0428 001:926 JLINK_WriteReg(CFBP, 0x00000000)  returns 0x00 (0000ms, 1178ms total)
T0428 001:926 JLINK_SetBPEx(Addr = 0x20000000, Type = 0xFFFFFFF2)  returns 0x0000000E (0000ms, 1178ms total)
T0428 001:926 JLINK_Go() -- CPU_WriteMem(4 bytes @ 0xE0002008) -- CPU_WriteMem(4 bytes @ 0xE000200C) -- CPU_WriteMem(4 bytes @ 0xE0002010) -- CPU_WriteMem(4 bytes @ 0xE0002014) -- CPU_WriteMem(4 bytes @ 0xE0002018) -- CPU_WriteMem(4 bytes @ 0xE000201C) (0009ms, 1178ms total)
T0428 001:935 JLINK_IsHalted()  returns FALSE (0001ms, 1187ms total)
T0428 001:986 JLINK_IsHalted() -- CPU_ReadMem(2 bytes @ 0x20000000)  returns TRUE (0006ms, 1187ms total)
T0428 001:992 JLINK_ReadReg(R15)  returns 0x20000000 (0000ms, 1187ms total)
T0428 001:992 JLINK_ClrBPEx(BPHandle = 0x0000000E)  returns 0x00 (0000ms, 1187ms total)
T0428 001:992 JLINK_ReadReg(R0)  returns 0x00000000 (0000ms, 1187ms total)
T0428 001:992 JLINK_WriteMem(0x20000164, 0x0400 Bytes, ...) -- Data:  00 BF 00 BF 65 81 60 89 20 81 20 68 10 B1 20 68 ... -- CPU_WriteMem(1024 bytes @ 0x20000164)  returns 0x400 (0007ms, 1187ms total)
T0428 001:999 JLINK_WriteReg(R0, 0x08002800)  returns 0x00 (0000ms, 1194ms total)
T0428 001:999 JLINK_WriteReg(R1, 0x00000400)  returns 0x00 (0000ms, 1194ms total)
T0428 001:999 JLINK_WriteReg(R2, 0x20000164)  returns 0x00 (0000ms, 1194ms total)
T0428 001:999 JLINK_WriteReg(R3, 0x00000000)  returns 0x00 (0000ms, 1194ms total)
T0428 001:999 JLINK_WriteReg(R4, 0x00000000)  returns 0x00 (0000ms, 1194ms total)
T0428 001:999 JLINK_WriteReg(R5, 0x00000000)  returns 0x00 (0001ms, 1194ms total)
T0428 002:000 JLINK_WriteReg(R6, 0x00000000)  returns 0x00 (0000ms, 1195ms total)
T0428 002:000 JLINK_WriteReg(R7, 0x00000000)  returns 0x00 (0000ms, 1195ms total)
T0428 002:000 JLINK_WriteReg(R8, 0x00000000)  returns 0x00 (0000ms, 1195ms total)
T0428 002:000 JLINK_WriteReg(R9, 0x20000160)  returns 0x00 (0000ms, 1195ms total)
T0428 002:000 JLINK_WriteReg(R10, 0x00000000)  returns 0x00 (0000ms, 1195ms total)
T0428 002:000 JLINK_WriteReg(R11, 0x00000000)  returns 0x00 (0000ms, 1195ms total)
T0428 002:000 JLINK_WriteReg(R12, 0x00000000)  returns 0x00 (0000ms, 1195ms total)
T0428 002:000 JLINK_WriteReg(R13, 0x20000800)  returns 0x00 (0000ms, 1195ms total)
T0428 002:000 JLINK_WriteReg(R14, 0x20000001)  returns 0x00 (0000ms, 1195ms total)
T0428 002:000 JLINK_WriteReg(R15, 0x200000F4)  returns 0x00 (0000ms, 1195ms total)
T0428 002:000 JLINK_WriteReg(XPSR, 0x01000000)  returns 0x00 (0000ms, 1195ms total)
T0428 002:000 JLINK_WriteReg(MSP, 0x20000800)  returns 0x00 (0000ms, 1195ms total)
T0428 002:000 JLINK_WriteReg(PSP, 0x20000800)  returns 0x00 (0000ms, 1195ms total)
T0428 002:000 JLINK_WriteReg(CFBP, 0x00000000)  returns 0x00 (0000ms, 1195ms total)
T0428 002:000 JLINK_SetBPEx(Addr = 0x20000000, Type = 0xFFFFFFF2)  returns 0x0000000F (0000ms, 1195ms total)
T0428 002:000 JLINK_Go() -- CPU_WriteMem(4 bytes @ 0xE0002008) -- CPU_WriteMem(4 bytes @ 0xE000200C) -- CPU_WriteMem(4 bytes @ 0xE0002010) -- CPU_WriteMem(4 bytes @ 0xE0002014) -- CPU_WriteMem(4 bytes @ 0xE0002018) -- CPU_WriteMem(4 bytes @ 0xE000201C) (0007ms, 1195ms total)
T0428 002:007 JLINK_IsHalted()  returns FALSE (0002ms, 1202ms total)
T0428 002:060 JLINK_IsHalted() -- CPU_ReadMem(2 bytes @ 0x20000000)  returns TRUE (0006ms, 1202ms total)
T0428 002:066 JLINK_ReadReg(R15)  returns 0x20000000 (0000ms, 1202ms total)
T0428 002:066 JLINK_ClrBPEx(BPHandle = 0x0000000F)  returns 0x00 (0000ms, 1202ms total)
T0428 002:066 JLINK_ReadReg(R0)  returns 0x00000000 (0000ms, 1202ms total)
T0428 002:066 JLINK_WriteMem(0x20000164, 0x0400 Bytes, ...) -- Data:  30 89 40 1B 1F FA 80 FA 30 89 E9 19 88 42 14 DB ... -- CPU_WriteMem(1024 bytes @ 0x20000164)  returns 0x400 (0008ms, 1202ms total)
T0428 002:074 JLINK_WriteReg(R0, 0x08002C00)  returns 0x00 (0000ms, 1210ms total)
T0428 002:074 JLINK_WriteReg(R1, 0x00000400)  returns 0x00 (0000ms, 1210ms total)
T0428 002:074 JLINK_WriteReg(R2, 0x20000164)  returns 0x00 (0000ms, 1210ms total)
